Freq.	V(V1,V2)/I(R2)
Step Information: V=10p  (Run: 1/9)
3.60000000000000e+004	(7.98007800185739e+001dB,9.04971976718684e+001°)
3.60140140140140e+004	(7.97940903405724e+001dB,9.05004986574884e+001°)
3.60280280280280e+004	(7.97873802226693e+001dB,9.05038324862424e+001°)
3.60420420420420e+004	(7.97806494504090e+001dB,9.05071995950058e+001°)
3.60560560560561e+004	(7.97738978065500e+001dB,9.05106004279381e+001°)
3.60700700700701e+004	(7.97671250710202e+001dB,9.05140354366257e+001°)
3.60840840840841e+004	(7.97603310208700e+001dB,9.05175050802337e+001°)
3.60980980980981e+004	(7.97535154302250e+001dB,9.05210098256553e+001°)
3.61121121121121e+004	(7.97466780702389e+001dB,9.05245501476747e+001°)
3.61261261261261e+004	(7.97398187090433e+001dB,9.05281265291198e+001°)
3.61401401401401e+004	(7.97329371116985e+001dB,9.05317394610312e+001°)
3.61541541541542e+004	(7.97260330401420e+001dB,9.05353894428293e+001°)
3.61681681681682e+004	(7.97191062531370e+001dB,9.05390769824861e+001°)
3.61821821821822e+004	(7.97121565062189e+001dB,9.05428025966993e+001°)
3.61961961961962e+004	(7.97051835516414e+001dB,9.05465668110772e+001°)
3.62102102102102e+004	(7.96981871383214e+001dB,9.05503701603188e+001°)
3.62242242242242e+004	(7.96911670117825e+001dB,9.05542131884050e+001°)
3.62382382382382e+004	(7.96841229140979e+001dB,9.05580964487953e+001°)
3.62522522522522e+004	(7.96770545838315e+001dB,9.05620205046196e+001°)
3.62662662662663e+004	(7.96699617559783e+001dB,9.05659859288874e+001°)
3.62802802802803e+004	(7.96628441619032e+001dB,9.05699933046955e+001°)
3.62942942942943e+004	(7.96557015292790e+001dB,9.05740432254378e+001°)
3.63083083083083e+004	(7.96485335820230e+001dB,9.05781362950297e+001°)
3.63223223223223e+004	(7.96413400402317e+001dB,9.05822731281270e+001°)
3.63363363363363e+004	(7.96341206201151e+001dB,9.05864543503606e+001°)
3.63503503503503e+004	(7.96268750339290e+001dB,9.05906805985680e+001°)
3.63643643643644e+004	(7.96196029899061e+001dB,9.05949525210377e+001°)
3.63783783783784e+004	(7.96123041921856e+001dB,9.05992707777559e+001°)
3.63923923923924e+004	(7.96049783407415e+001dB,9.06036360406616e+001°)
3.64064064064064e+004	(7.95976251313091e+001dB,9.06080489939027e+001°)
3.64204204204204e+004	(7.95902442553101e+001dB,9.06125103341101e+001°)
3.64344344344344e+004	(7.95828353997765e+001dB,9.06170207706648e+001°)
3.64484484484484e+004	(7.95753982472721e+001dB,9.06215810259825e+001°)
3.64624624624625e+004	(7.95679324758130e+001dB,9.06261918358007e+001°)
3.64764764764765e+004	(7.95604377587862e+001dB,9.06308539494747e+001°)
3.64904904904905e+004	(7.95529137648660e+001dB,9.06355681302803e+001°)
3.65045045045045e+004	(7.95453601579299e+001dB,9.06403351557245e+001°)
3.65185185185185e+004	(7.95377765969710e+001dB,9.06451558178658e+001°)
3.65325325325325e+004	(7.95301627360096e+001dB,9.06500309236407e+001°)
3.65465465465465e+004	(7.95225182240029e+001dB,9.06549612952037e+001°)
3.65605605605606e+004	(7.95148427047520e+001dB,9.06599477702636e+001°)
3.65745745745746e+004	(7.95071358168077e+001dB,9.06649912024502e+001°)
3.65885885885886e+004	(7.94993971933736e+001dB,9.06700924616643e+001°)
3.66026026026026e+004	(7.94916264622077e+001dB,9.06752524344641e+001°)
3.66166166166166e+004	(7.94838232455210e+001dB,9.06804720244404e+001°)
3.66306306306306e+004	(7.94759871598746e+001dB,9.06857521526127e+001°)
3.66446446446446e+004	(7.94681178160743e+001dB,9.06910937578330e+001°)
3.66586586586586e+004	(7.94602148190625e+001dB,9.06964977972043e+001°)
3.66726726726727e+004	(7.94522777678084e+001dB,9.07019652465037e+001°)
3.66866866866867e+004	(7.94443062551951e+001dB,9.07074971006216e+001°)
3.67007007007007e+004	(7.94362998679043e+001dB,9.07130943740137e+001°)
3.67147147147147e+004	(7.94282581862984e+001dB,9.07187581011618e+001°)
3.67287287287287e+004	(7.94201807843004e+001dB,9.07244893370517e+001°)
3.67427427427427e+004	(7.94120672292706e+001dB,9.07302891576603e+001°)
3.67567567567567e+004	(7.94039170818799e+001dB,9.07361586604585e+001°)
3.67707707707708e+004	(7.93957298959819e+001dB,9.07420989649302e+001°)
3.67847847847848e+004	(7.93875052184802e+001dB,9.07481112130979e+001°)
3.67987987987988e+004	(7.93792425891938e+001dB,9.07541965700735e+001°)
3.68128128128128e+004	(7.93709415407191e+001dB,9.07603562246219e+001°)
3.68268268268268e+004	(7.93626015982885e+001dB,9.07665913897296e+001°)
3.68408408408408e+004	(7.93542222796259e+001dB,9.07729033032083e+001°)
3.68548548548548e+004	(7.93458030947989e+001dB,9.07792932283010e+001°)
3.68688688688689e+004	(7.93373435460673e+001dB,9.07857624543130e+001°)
3.68828828828829e+004	(7.93288431277280e+001dB,9.07923122972541e+001°)
3.68968968968969e+004	(7.93203013259565e+001dB,9.07989441005126e+001°)
3.69109109109109e+004	(7.93117176186448e+001dB,9.08056592355320e+001°)
3.69249249249249e+004	(7.93030914752347e+001dB,9.08124591025205e+001°)
3.69389389389389e+004	(7.92944223565476e+001dB,9.08193451311761e+001°)
3.69529529529529e+004	(7.92857097146107e+001dB,9.08263187814351e+001°)
3.69669669669670e+004	(7.92769529924778e+001dB,9.08333815442372e+001°)
3.69809809809810e+004	(7.92681516240471e+001dB,9.08405349423223e+001°)
3.69949949949950e+004	(7.92593050338736e+001dB,9.08477805310437e+001°)
3.70090090090090e+004	(7.92504126369775e+001dB,9.08551198992131e+001°)
3.70230230230230e+004	(7.92414738386475e+001dB,9.08625546699584e+001°)
3.70370370370370e+004	(7.92324880342398e+001dB,9.08700865016239e+001°)
3.70510510510510e+004	(7.92234546089716e+001dB,9.08777170886839e+001°)
3.70650650650651e+004	(7.92143729377098e+001dB,9.08854481626906e+001°)
3.70790790790791e+004	(7.92052423847547e+001dB,9.08932814932550e+001°)
3.70930930930931e+004	(7.91960623036178e+001dB,9.09012188890467e+001°)
3.71071071071071e+004	(7.91868320367943e+001dB,9.09092621988373e+001°)
3.71211211211211e+004	(7.91775509155300e+001dB,9.09174133125600e+001°)
3.71351351351351e+004	(7.91682182595822e+001dB,9.09256741624288e+001°)
3.71491491491491e+004	(7.91588333769747e+001dB,9.09340467240607e+001°)
3.71631631631631e+004	(7.91493955637464e+001dB,9.09425330176567e+001°)
3.71771771771772e+004	(7.91399041036936e+001dB,9.09511351092101e+001°)
3.71911911911912e+004	(7.91303582681060e+001dB,9.09598551117570e+001°)
3.72052052052052e+004	(7.91207573154953e+001dB,9.09686951866613e+001°)
3.72192192192192e+004	(7.91111004913175e+001dB,9.09776575449498e+001°)
3.72332332332332e+004	(7.91013870276875e+001dB,9.09867444486818e+001°)
3.72472472472472e+004	(7.90916161430869e+001dB,9.09959582123673e+001°)
3.72612612612612e+004	(7.90817870420634e+001dB,9.10053012044285e+001°)
3.72752752752753e+004	(7.90718989149232e+001dB,9.10147758487113e+001°)
3.72892892892893e+004	(7.90619509374145e+001dB,9.10243846260471e+001°)
3.73033033033033e+004	(7.90519422704039e+001dB,9.10341300758663e+001°)
3.73173173173173e+004	(7.90418720595425e+001dB,9.10440147978572e+001°)
3.73313313313313e+004	(7.90317394349249e+001dB,9.10540414536921e+001°)
3.73453453453453e+004	(7.90215435107382e+001dB,9.10642127688048e+001°)
3.73593593593593e+004	(7.90112833849014e+001dB,9.10745315342219e+001°)
3.73733733733734e+004	(7.90009581386962e+001dB,9.10850006084738e+001°)
3.73873873873874e+004	(7.89905668363867e+001dB,9.10956229195457e+001°)
3.74014014014014e+004	(7.89801085248298e+001dB,9.11064014669166e+001°)
3.74154154154154e+004	(7.89695822330740e+001dB,9.11173393236579e+001°)
3.74294294294294e+004	(7.89589869719486e+001dB,9.11284396386031e+001°)
3.74434434434434e+004	(7.89483217336404e+001dB,9.11397056385977e+001°)
3.74574574574574e+004	(7.89375854912596e+001dB,9.11511406308198e+001°)
3.74714714714715e+004	(7.89267771983937e+001dB,9.11627480051915e+001°)
3.74854854854855e+004	(7.89158957886487e+001dB,9.11745312368676e+001°)
3.74994994994995e+004	(7.89049401751779e+001dB,9.11864938888122e+001°)
3.75135135135135e+004	(7.88939092501975e+001dB,9.11986396144668e+001°)
3.75275275275275e+004	(7.88828018844884e+001dB,9.12109721605185e+001°)
3.75415415415415e+004	(7.88716169268850e+001dB,9.12234953697591e+001°)
3.75555555555555e+004	(7.88603532037482e+001dB,9.12362131840492e+001°)
3.75695695695695e+004	(7.88490095184249e+001dB,9.12491296473988e+001°)
3.75835835835836e+004	(7.88375846506908e+001dB,9.12622489091372e+001°)
3.75975975975976e+004	(7.88260773561789e+001dB,9.12755752272290e+001°)
3.76116116116116e+004	(7.88144863657904e+001dB,9.12891129716837e+001°)
3.76256256256256e+004	(7.88028103850891e+001dB,9.13028666281020e+001°)
3.76396396396396e+004	(7.87910480936790e+001dB,9.13168408013613e+001°)
3.76536536536536e+004	(7.87791981445629e+001dB,9.13310402194270e+001°)
3.76676676676676e+004	(7.87672591634832e+001dB,9.13454697373056e+001°)
3.76816816816817e+004	(7.87552297482432e+001dB,9.13601343411542e+001°)
3.76956956956957e+004	(7.87431084680085e+001dB,9.13750391525455e+001°)
3.77097097097097e+004	(7.87308938625886e+001dB,9.13901894328816e+001°)
3.77237237237237e+004	(7.87185844416962e+001dB,9.14055905879947e+001°)
3.77377377377377e+004	(7.87061786841858e+001dB,9.14212481729083e+001°)
3.77517517517517e+004	(7.86936750372691e+001dB,9.14371678967962e+001°)
3.77657657657657e+004	(7.86810719157075e+001dB,9.14533556281189e+001°)
3.77797797797798e+004	(7.86683677009800e+001dB,9.14698173999750e+001°)
3.77937937937938e+004	(7.86555607404267e+001dB,9.14865594156488e+001°)
3.78078078078078e+004	(7.86426493463662e+001dB,9.15035880543912e+001°)
3.78218218218218e+004	(7.86296317951873e+001dB,9.15209098774191e+001°)
3.78358358358358e+004	(7.86165063264115e+001dB,9.15385316341502e+001°)
3.78498498498498e+004	(7.86032711417289e+001dB,9.15564602687056e+001°)
3.78638638638638e+004	(7.85899244040040e+001dB,9.15747029266560e+001°)
3.78778778778779e+004	(7.85764642362505e+001dB,9.15932669620464e+001°)
3.78918918918919e+004	(7.85628887205763e+001dB,9.16121599447173e+001°)
3.79059059059059e+004	(7.85491958970944e+001dB,9.16313896679132e+001°)
3.79199199199199e+004	(7.85353837628012e+001dB,9.16509641562049e+001°)
3.79339339339339e+004	(7.85214502704202e+001dB,9.16708916737553e+001°)
3.79479479479479e+004	(7.85073933272091e+001dB,9.16911807329051e+001°)
3.79619619619619e+004	(7.84932107937308e+001dB,9.17118401031471e+001°)
3.79759759759759e+004	(7.84789004825847e+001dB,9.17328788204503e+001°)
3.79899899899900e+004	(7.84644601571002e+001dB,9.17543061970038e+001°)
3.80040040040040e+004	(7.84498875299876e+001dB,9.17761318313607e+001°)
3.80180180180180e+004	(7.84351802619468e+001dB,9.17983656190206e+001°)
3.80320320320320e+004	(7.84203359602334e+001dB,9.18210177634755e+001°)
3.80460460460460e+004	(7.84053521771778e+001dB,9.18440987877287e+001°)
3.80600600600600e+004	(7.83902264086587e+001dB,9.18676195463153e+001°)
3.80740740740740e+004	(7.83749560925270e+001dB,9.18915912378553e+001°)
3.80880880880881e+004	(7.83595386069806e+001dB,9.19160254181632e+001°)
3.81021021021021e+004	(7.83439712688867e+001dB,9.19409340139317e+001°)
3.81161161161161e+004	(7.83282513320505e+001dB,9.19663293370355e+001°)
3.81301301301301e+004	(7.83123759854290e+001dB,9.19922240994777e+001°)
3.81441441441441e+004	(7.82963423512868e+001dB,9.20186314290089e+001°)
3.81581581581581e+004	(7.82801474832932e+001dB,9.20455648854628e+001°)
3.81721721721721e+004	(7.82637883645582e+001dB,9.20730384778384e+001°)
3.81861861861862e+004	(7.82472619056044e+001dB,9.21010666821670e+001°)
3.82002002002002e+004	(7.82305649422743e+001dB,9.21296644602072e+001°)
3.82142142142142e+004	(7.82136942335702e+001dB,9.21588472790306e+001°)
3.82282282282282e+004	(7.81966464594239e+001dB,9.21886311315015e+001°)
3.82422422422422e+004	(7.81794182183947e+001dB,9.22190325577483e+001°)
3.82562562562562e+004	(7.81620060252922e+001dB,9.22500686676279e+001°)
3.82702702702702e+004	(7.81444063087241e+001dB,9.22817571643056e+001°)
3.82842842842843e+004	(7.81266154085631e+001dB,9.23141163689396e+001°)
3.82982982982983e+004	(7.81086295733332e+001dB,9.23471652465764e+001°)
3.83123123123123e+004	(7.80904449575113e+001dB,9.23809234333018e+001°)
3.83263263263263e+004	(7.80720576187417e+001dB,9.24154112647382e+001°)
3.83403403403403e+004	(7.80534635149627e+001dB,9.24506498059486e+001°)
3.83543543543543e+004	(7.80346585014386e+001dB,9.24866608828116e+001°)
3.83683683683683e+004	(7.80156383276999e+001dB,9.25234671150060e+001°)
3.83823823823823e+004	(7.79963986343832e+001dB,9.25610919506120e+001°)
3.83963963963964e+004	(7.79769349499729e+001dB,9.25995597025089e+001°)
3.84104104104104e+004	(7.79572426874398e+001dB,9.26388955866222e+001°)
3.84244244244244e+004	(7.79373171407724e+001dB,9.26791257621165e+001°)
3.84384384384384e+004	(7.79171534814028e+001dB,9.27202773737117e+001°)
3.84524524524524e+004	(7.78967467545188e+001dB,9.27623785961669e+001°)
3.84664664664664e+004	(7.78760918752650e+001dB,9.28054586811279e+001°)
3.84804804804804e+004	(7.78551836248265e+001dB,9.28495480064355e+001°)
3.84944944944945e+004	(7.78340166463951e+001dB,9.28946781280725e+001°)
3.85085085085085e+004	(7.78125854410141e+001dB,9.29408818348657e+001°)
3.85225225225225e+004	(7.77908843633021e+001dB,9.29881932061822e+001°)
3.85365365365365e+004	(7.77689076170512e+001dB,9.30366476727264e+001°)
3.85505505505505e+004	(7.77466492506997e+001dB,9.30862820806746e+001°)
3.85645645645645e+004	(7.77241031526783e+001dB,9.31371347593460e+001°)
3.85785785785785e+004	(7.77012630466268e+001dB,9.31892455926184e+001°)
3.85925925925926e+004	(7.76781224864845e+001dB,9.32426560943517e+001°)
3.86066066066066e+004	(7.76546748514494e+001dB,9.32974094880176e+001°)
3.86206206206206e+004	(7.76309133408123e+001dB,9.33535507908759e+001°)
3.86346346346346e+004	(7.76068309686635e+001dB,9.34111269029506e+001°)
3.86486486486486e+004	(7.75824205584733e+001dB,9.34701867010687e+001°)
3.86626626626626e+004	(7.75576747375539e+001dB,9.35307811384002e+001°)
3.86766766766766e+004	(7.75325859314028e+001dB,9.35929633497571e+001°)
3.86906906906907e+004	(7.75071463579339e+001dB,9.36567887630881e+001°)
3.87047047047047e+004	(7.74813480216032e+001dB,9.37223152175313e+001°)
3.87187187187187e+004	(7.74551827074380e+001dB,9.37896030885279e+001°)
3.87327327327327e+004	(7.74286419749780e+001dB,9.38587154203929e+001°)
3.87467467467467e+004	(7.74017171521430e+001dB,9.39297180669166e+001°)
3.87607607607607e+004	(7.73743993290368e+001dB,9.40026798404615e+001°)
3.87747747747747e+004	(7.73466793517118e+001dB,9.40776726702307e+001°)
3.87887887887887e+004	(7.73185478159050e+001dB,9.41547717702249e+001°)
3.88028028028028e+004	(7.72899950607816e+001dB,9.42340558176983e+001°)
3.88168168168168e+004	(7.72610111626980e+001dB,9.43156071426540e+001°)
3.88308308308308e+004	(7.72315859290303e+001dB,9.43995119293210e+001°)
3.88448448448448e+004	(7.72017088921005e+001dB,9.44858604303995e+001°)
3.88588588588588e+004	(7.71713693032361e+001dB,9.45747471948607e+001°)
3.88728728728728e+004	(7.71405561270302e+001dB,9.46662713105063e+001°)
3.88868868868868e+004	(7.71092580358362e+001dB,9.47605366620352e+001°)
3.89009009009009e+004	(7.70774634045841e+001dB,9.48576522059972e+001°)
3.89149149149149e+004	(7.70451603059802e+001dB,9.49577322636888e+001°)
3.89289289289289e+004	(7.70123365061799e+001dB,9.50608968333161e+001°)
3.89429429429429e+004	(7.69789794610348e+001dB,9.51672719228705e+001°)
3.89569569569569e+004	(7.69450763130214e+001dB,9.52769899051387e+001°)
3.89709709709709e+004	(7.69106138889865e+001dB,9.53901898965608e+001°)
3.89849849849849e+004	(7.68755786988482e+001dB,9.55070181615670e+001°)
3.89989989989990e+004	(7.68399569354314e+001dB,9.56276285444154e+001°)
3.90130130130130e+004	(7.68037344756135e+001dB,9.57521829303536e+001°)
3.90270270270270e+004	(7.67668968830128e+001dB,9.58808517384676e+001°)
3.90410410410410e+004	(7.67294294124557e+001dB,9.60138144483767e+001°)
3.90550550550550e+004	(7.66913170165165e+001dB,9.61512601634417e+001°)
3.90690690690690e+004	(7.66525443544338e+001dB,9.62933882129579e+001°)
3.90830830830830e+004	(7.66130958037926e+001dB,9.64404087964695e+001°)
3.90970970970971e+004	(7.65729554753660e+001dB,9.65925436730516e+001°)
3.91111111111111e+004	(7.65321072316028e+001dB,9.67500268989833e+001°)
3.91251251251251e+004	(7.64905347092946e+001dB,9.69131056172854e+001°)
3.91391391391391e+004	(7.64482213470445e+001dB,9.70820409029611e+001°)
3.91531531531531e+004	(7.64051504182174e+001dB,9.72571086677485e+001°)
3.91671671671671e+004	(7.63613050701810e+001dB,9.74386006287888e+001°)
3.91811811811811e+004	(7.63166683707405e+001dB,9.76268253456659e+001°)
3.91951951951951e+004	(7.62712233627756e+001dB,9.78221093303724e+001°)
3.92092092092092e+004	(7.62249531282727e+001dB,9.80247982353788e+001°)
3.92232232232232e+004	(7.61778408630629e+001dB,9.82352581247912e+001°)
3.92372372372372e+004	(7.61298699637863e+001dB,9.84538768340293e+001°)
3.92512512512512e+004	(7.60810241287938e+001dB,9.86810654234466e+001°)
3.92652652652652e+004	(7.60312874749514e+001dB,9.89172597315871e+001°)
3.92792792792792e+004	(7.59806446725518e+001dB,9.91629220335296e+001°)
3.92932932932932e+004	(7.59290811008719e+001dB,9.94185428099663e+001°)
3.93073073073073e+004	(7.58765830272333e+001dB,9.96846426322747e+001°)
3.93213213213213e+004	(7.58231378128183e+001dB,9.99617741684751e+001°)
3.93353353353353e+004	(7.57687341489371e+001dB,1.00250524314479e+002°)
3.93493493493493e+004	(7.57133623279209e+001dB,1.00551516454017e+002°)
3.93633633633633e+004	(7.56570145533839e+001dB,1.00865412849579e+002°)
3.93773773773773e+004	(7.55996852952005e+001dB,1.01192917164891e+002°)
3.93913913913913e+004	(7.55413716952390e+001dB,1.01534777117338e+002°)
3.94054054054054e+004	(7.54820740306839e+001dB,1.01891787256057e+002°)
3.94194194194194e+004	(7.54217962425728e+001dB,1.02264791857320e+002°)
3.94334334334334e+004	(7.53605465381620e+001dB,1.02654687924613e+002°)
3.94474474474474e+004	(7.52983380767159e+001dB,1.03062428274615e+002°)
3.94614614614614e+004	(7.52351897493832e+001dB,1.03489024682758e+002°)
3.94754754754754e+004	(7.51711270650280e+001dB,1.03935551053074e+002°)
3.94894894894894e+004	(7.51061831550462e+001dB,1.04403146565329e+002°)
3.95035035035035e+004	(7.50403999114069e+001dB,1.04893018738281e+002°)
3.95175175175175e+004	(7.49738292734192e+001dB,1.05406446331025e+002°)
3.95315315315315e+004	(7.49065346797437e+001dB,1.05944781982968e+002°)
3.95455455455455e+004	(7.48385927032079e+001dB,1.06509454468323e+002°)
3.95595595595595e+004	(7.47700948865051e+001dB,1.07101970410206e+002°)
3.95735735735735e+004	(7.47011497971922e+001dB,1.07723915264373e+002°)
3.95875875875875e+004	(7.46318853197920e+001dB,1.08376953339891e+002°)
3.96016016016015e+004	(7.45624512014853e+001dB,1.09062826575547e+002°)
3.96156156156156e+004	(7.44930218651911e+001dB,1.09783351734739e+002°)
3.96296296296296e+004	(7.44237994993564e+001dB,1.10540415617974e+002°)
3.96436436436436e+004	(7.43550174272817e+001dB,1.11335967822686e+002°)
3.96576576576576e+004	(7.42869437491839e+001dB,1.12172010504251e+002°)
3.96716716716716e+004	(7.42198852371996e+001dB,1.13050584514232e+002°)
3.96856856856856e+004	(7.41541914460780e+001dB,1.13973751214846e+002°)
3.96996996996996e+004	(7.40902589796703e+001dB,1.14943569199173e+002°)
3.97137137137137e+004	(7.40285358245749e+001dB,1.15962065092985e+002°)
3.97277277277277e+004	(7.39695256271317e+001dB,1.17031197589449e+002°)
3.97417417417417e+004	(7.39137917476764e+001dB,1.18152813886894e+002°)
3.97557557557557e+004	(7.38619608771730e+001dB,1.19328597782791e+002°)
3.97697697697697e+004	(7.38147259471071e+001dB,1.20560008847202e+002°)
3.97837837837837e+004	(7.37728480065094e+001dB,1.21848212382058e+002°)
3.97977977977977e+004	(7.37371566841789e+001dB,1.23194000294139e+002°)
3.98118118118118e+004	(7.37085488062105e+001dB,1.24597703592023e+002°)
3.98258258258258e+004	(7.36879847072679e+001dB,1.26059097972193e+002°)
3.98398398398398e+004	(7.36764817695344e+001dB,1.27577304881394e+002°)
3.98538538538538e+004	(7.36751047582715e+001dB,1.29150691499140e+002°)
